T3C78 109:362 SEGGER J-Link V6.30h Log File (0000ms, 10252ms total)
T3C78 109:362 DLL Compiled: Mar 16 2018 18:02:51 (0000ms, 10252ms total)
T3C78 109:362 Logging started @ 2018-05-29 15:43 (0000ms, 10252ms total)
T3C78 109:362 JLINK_SetWarnOutHandler(...) (0000ms, 10252ms total)
T3C78 109:362 JLINK_OpenEx(...)
Firmware: J-Link OB-SAM3U128 V3 compiled Sep 21 2017 14:14:50
Hardware: V3.00
S/N: 483045502
TELNET listener socket opened on port 19021WEBSRV 
Starting webserver (0101ms, 10353ms total)
T3C78 109:362 WEBSRV Webserver running on local port 19080 (0101ms, 10353ms total)
T3C78 109:362   returns O.K. (0101ms, 10353ms total)
T3C78 109:463 JLINK_GetEmuCaps()  returns 0xB9FA5A37 (0000ms, 10353ms total)
T3C78 109:463 JLINK_TIF_GetAvailable(...) (0001ms, 10354ms total)
T3C78 109:464 JLINK_SetErrorOutHandler(...) (0000ms, 10354ms total)
T3C78 109:464 JLINK_ExecCommand("ProjectFile = "C:\Users\Ben\Documents\src\fann_apollo2\JLinkSettings.ini"", ...).   returns 0x00 (0001ms, 10355ms total)
T3C78 109:465 JLINK_ExecCommand("Device = AMAPH1KK-KBR", ...). Device "AMAPH1KK-KBR" selected.  returns 0x00 (0002ms, 10357ms total)
T3C78 109:467 JLINK_ExecCommand("DisableConnectionTimeout", ...).   returns 0x01 (0000ms, 10357ms total)
T3C78 109:467 JLINK_GetHardwareVersion()  returns 0x7530 (0000ms, 10357ms total)
T3C78 109:467 JLINK_GetDLLVersion()  returns 63008 (0000ms, 10357ms total)
T3C78 109:467 JLINK_GetFirmwareString(...) (0000ms, 10357ms total)
T3C78 109:467 JLINK_GetDLLVersion()  returns 63008 (0000ms, 10357ms total)
T3C78 109:467 JLINK_GetCompileDateTime() (0000ms, 10357ms total)
T3C78 109:467 JLINK_GetFirmwareString(...) (0000ms, 10357ms total)
T3C78 109:467 JLINK_GetHardwareVersion()  returns 0x7530 (0000ms, 10357ms total)
T3C78 109:467 JLINK_TIF_Select(JLINKARM_TIF_SWD)  returns 0x00 (0000ms, 10357ms total)
T3C78 109:467 JLINK_SetSpeed(50000) (0000ms, 10357ms total)
T3C78 109:467 JLINK_GetId() >0x10B TIF>Found SW-DP with ID 0x2BA01477 >0x0D TIF> >0x28 TIF> >0x0D TIF> >0x28 TIF> >0x0D TIF> >0x28 TIF> >0x0D TIF> >0x28 TIF> >0x0D TIF> >0x21 TIF> >0x0D TIF> >0x28 TIF>Scanning AP map to find all available APs >0x0D TIF> >0x28 TIF> >0x0D TIF> >0x21 TIF> >0x0D TIF> >0x21 TIF> >0x0D TIF> >0x28 TIF> >0x0D TIF> >0x21 TIF> >0x0D TIF> >0x21 TIF>AP[1]: Stopped AP scan as end of AP map has been reachedAP[0]: AHB-AP (IDR: 0x24770011)Iterating through AP map to find AHB-AP to use
 >0x42 TIF> >0x28 TIF> >0x0D TIF> >0x28 TIF> >0x0D TIF> >0x21 TIF> >0x0D TIF> >0x21 TIF> >0x42 TIF> >0x28 TIF> >0x0D TIF> >0x28 TIF> >0x0D TIF> >0x28 TIF> >0x0D TIF> >0x21 TIF> >0x0D TIF> >0x21 TIF>AP[0]: Core foundAP[0]: AHB-AP ROM base: 0xE00FF000 >0x0D TIF> >0x28 TIF> >0x0D TIF> >0x28 TIF> >0x0D TIF> >0x28 TIF> >0x0D TIF> >0x21 TIF> >0x0D TIF> >0x21 TIF>CPUID register: 0x410FC241. Implementer code: 0x41 (ARM)Found Cortex-M4 r0p1, Little endian. -- CPU_ReadMem(4 bytes @ 0xE000EDF0)
 -- CPU_WriteMem(4 bytes @ 0xE000EDF0) -- CPU_ReadMem(4 bytes @ 0xE0002000)FPUnit: 6 code (BP) slots and 2 literal slots -- CPU_ReadMem(4 bytes @ 0xE000EDFC) -- CPU_WriteMem(4 bytes @ 0xE000EDFC) -- CPU_ReadMem(4 bytes @ 0xE0001000) -- CPU_WriteMem(4 bytes @ 0xE0001000) -- CPU_ReadMem(4 bytes @ 0xE000ED88) -- CPU_WriteMem(4 bytes @ 0xE000ED88) -- CPU_ReadMem(4 bytes @ 0xE000ED88) -- CPU_WriteMem(4 bytes @ 0xE000ED88)CoreSight components:ROMTbl[0] @ E00FF000 -- CPU_ReadMem(16 bytes @ 0xE00FF000)
 -- CPU_ReadMem(16 bytes @ 0xE000EFF0) -- CPU_ReadMem(16 bytes @ 0xE000EFE0)ROMTbl[0][0]: E000E000, CID: B105E00D, PID: 000BB00C SCS-M7 -- CPU_ReadMem(16 bytes @ 0xE0001FF0) -- CPU_ReadMem(16 bytes @ 0xE0001FE0)ROMTbl[0][1]: E0001000, CID: B105E00D, PID: 003BB002 DWT -- CPU_ReadMem(16 bytes @ 0xE0002FF0) -- CPU_ReadMem(16 bytes @ 0xE0002FE0)ROMTbl[0][2]: E0002000, CID: B105E00D, PID: 002BB003 FPB -- CPU_ReadMem(16 bytes @ 0xE0000FF0) -- CPU_ReadMem(16 bytes @ 0xE0000FE0)
ROMTbl[0][3]: E0000000, CID: B105E00D, PID: 003BB001 ITM -- CPU_ReadMem(16 bytes @ 0xE00FF010) -- CPU_ReadMem(16 bytes @ 0xE0040FF0) -- CPU_ReadMem(16 bytes @ 0xE0040FE0)ROMTbl[0][4]: E0040000, CID: B105900D, PID: 000BB9A1 TPIU >0x0D TIF> >0x21 TIF>  returns 0x2BA01477 (0125ms, 10482ms total)
T3C78 109:592 JLINK_GetDLLVersion()  returns 63008 (0000ms, 10482ms total)
T3C78 109:592 JLINK_CORE_GetFound()  returns 0xE0000FF (0000ms, 10482ms total)
T3C78 109:592 JLINK_GetDebugInfo(0x100 = JLINKARM_ROM_TABLE_ADDR_INDEX) -- Value=0xE00FF000  returns 0x00 (0000ms, 10482ms total)
T3C78 109:592 JLINK_GetDebugInfo(0x100 = JLINKARM_ROM_TABLE_ADDR_INDEX) -- Value=0xE00FF000  returns 0x00 (0000ms, 10482ms total)
T3C78 109:592 JLINK_GetDebugInfo(0x101 = JLINKARM_DEBUG_INFO_ETM_ADDR_INDEX) -- Value=0x00000000  returns 0x00 (0000ms, 10482ms total)
T3C78 109:592 JLINK_ReadMemEx(0xE0041FF0, 0x0010 Bytes, ..., Flags = 0x02000004) -- CPU_ReadMem(16 bytes @ 0xE0041FF0) - Data: 00 00 00 00 00 00 00 00 00 00 00 00 00 00 00 00  returns 0x10 (0000ms, 10482ms total)
T3C78 109:592 JLINK_GetDebugInfo(0x102 = JLINKARM_DEBUG_INFO_MTB_ADDR_INDEX) -- Value=0x00000000  returns 0x00 (0000ms, 10482ms total)
T3C78 109:592 JLINK_GetDebugInfo(0x103 = JLINKARM_DEBUG_INFO_TPIU_ADDR_INDEX) -- Value=0xE0040000  returns 0x00 (0000ms, 10482ms total)
T3C78 109:592 JLINK_GetDebugInfo(0x104 = JLINKARM_DEBUG_INFO_ITM_ADDR_INDEX) -- Value=0xE0000000  returns 0x00 (0000ms, 10482ms total)
T3C78 109:592 JLINK_GetDebugInfo(0x105 = JLINKARM_DEBUG_INFO_DWT_ADDR_INDEX) -- Value=0xE0001000  returns 0x00 (0001ms, 10483ms total)
T3C78 109:593 JLINK_GetDebugInfo(0x106 = JLINKARM_DEBUG_INFO_FPB_ADDR_INDEX) -- Value=0xE0002000  returns 0x00 (0000ms, 10483ms total)
T3C78 109:593 JLINK_GetDebugInfo(0x107 = JLINKARM_DEBUG_INFO_NVIC_ADDR_INDEX) -- Value=0xE000E000  returns 0x00 (0000ms, 10483ms total)
T3C78 109:593 JLINK_GetDebugInfo(0x10C = JLINKARM_DEBUG_INFO_DBG_ADDR_INDEX) -- Value=0xE000EDF0  returns 0x00 (0000ms, 10483ms total)
T3C78 109:593 JLINK_GetDebugInfo(0x01 = Unknown) -- Value=0x00000001  returns 0x00 (0000ms, 10483ms total)
T3C78 109:593 JLINK_ReadMemU32(0xE000ED00, 0x0001 Items, ...) -- CPU_ReadMem(4 bytes @ 0xE000ED00) - Data: 41 C2 0F 41  returns 0x01 (0000ms, 10483ms total)
T3C78 109:593 JLINK_GetDebugInfo(0x10F = JLINKARM_DEBUG_INFO_HAS_CORTEX_M_SECURITY_EXT_INDEX) -- Value=0x00000000  returns 0x00 (0000ms, 10483ms total)
T3C78 109:593 JLINK_SetResetType(JLINKARM_CM3_RESET_TYPE_NORMAL)  returns JLINKARM_CM3_RESET_TYPE_NORMAL (0000ms, 10483ms total)
T3C78 109:593 JLINK_Reset() -- CPU is running -- CPU_WriteMem(4 bytes @ 0xE000EDF0) -- CPU is running -- CPU_WriteMem(4 bytes @ 0xE000EDFC)Reset: Halt core after reset via DEMCR.VC_CORERESET. >0x35 TIF>Reset: Reset device via AIRCR.SYSRESETREQ. -- CPU is running -- CPU_WriteMem(4 bytes @ 0xE000ED0C) >0x0D TIF> >0x28 TIF> -- CPU_ReadMem(4 bytes @ 0xE000EDF0) -- CPU_ReadMem(4 bytes @ 0xE000EDF0) -- CPU is running -- CPU_WriteMem(4 bytes @ 0xE000EDF0) -- CPU is running -- CPU_WriteMem(4 bytes @ 0xE000EDFC)
 -- CPU_ReadMem(4 bytes @ 0xE000EDF0) -- CPU_WriteMem(4 bytes @ 0xE0002000) -- CPU_ReadMem(4 bytes @ 0xE000EDFC) -- CPU_ReadMem(4 bytes @ 0xE0001000) (0066ms, 10549ms total)
T3C78 109:660 JLINK_ReadReg(R15 (PC))  returns 0x000000C0 (0000ms, 10550ms total)
T3C78 109:660 JLINK_ReadReg(XPSR)  returns 0x01000000 (0000ms, 10550ms total)
T3C78 109:660 JLINK_Halt()  returns 0x00 (0000ms, 10550ms total)
T3C78 109:660 JLINK_ReadMemU32(0xE000EDF0, 0x0001 Items, ...) -- CPU_ReadMem(4 bytes @ 0xE000EDF0) - Data: 03 00 03 00  returns 0x01 (0000ms, 10550ms total)
T3C78 109:660 JLINK_WriteU32(0xE000EDF0, 0xA05F0003) -- CPU_WriteMem(4 bytes @ 0xE000EDF0)  returns 0x00 (0001ms, 10551ms total)
T3C78 109:661 JLINK_WriteU32(0xE000EDFC, 0x01000000) -- CPU_WriteMem(4 bytes @ 0xE000EDFC)  returns 0x00 (0000ms, 10551ms total)
T3C78 109:661 JLINK_GetHWStatus(...)  returns 0x00 (0000ms, 10551ms total)
T3C78 109:661 JLINK_GetNumBPUnits(Type = 0xFFFFFF00)  returns 0x06 (0000ms, 10551ms total)
T3C78 109:661 JLINK_GetNumBPUnits(Type = 0xF0)  returns 0x2000 (0000ms, 10551ms total)
T3C78 109:661 JLINK_GetNumWPUnits()  returns 0x04 (0000ms, 10551ms total)
T3C78 109:661 JLINK_GetSpeed()  returns 0xA6B (0000ms, 10551ms total)
T3C78 109:662 JLINK_ReadMemU32(0xE000E004, 0x0001 Items, ...) -- CPU_ReadMem(4 bytes @ 0xE000E004) - Data: 00 00 00 00  returns 0x01 (0000ms, 10552ms total)
T3C78 109:662 JLINK_ReadMemU32(0xE000E004, 0x0001 Items, ...) -- CPU_ReadMem(4 bytes @ 0xE000E004) - Data: 00 00 00 00  returns 0x01 (0000ms, 10552ms total)
T3C78 109:663 JLINK_WriteMemEx(0xE0001000, 0x001C Bytes, ..., Flags = 0x02000004) - Data: 01 00 00 00 00 00 00 00 00 00 00 00 00 00 00 00 ... -- CPU_WriteMem(28 bytes @ 0xE0001000)  returns 0x1C (0001ms, 10553ms total)
T3C78 109:664 JLINK_ReadReg(R15 (PC))  returns 0x000000C0 (0000ms, 10553ms total)
T3C78 109:664 JLINK_ReadReg(XPSR)  returns 0x01000000 (0000ms, 10553ms total)
T3C78 109:761 JLINK_SetResetType(JLINKARM_CM3_RESET_TYPE_NORMAL)  returns JLINKARM_CM3_RESET_TYPE_NORMAL (0000ms, 10553ms total)
T3C78 109:761 JLINK_Reset() -- CPU_WriteMem(4 bytes @ 0xE000EDF0) -- CPU_WriteMem(4 bytes @ 0xE000EDFC)Reset: Halt core after reset via DEMCR.VC_CORERESET. >0x35 TIF>Reset: Reset device via AIRCR.SYSRESETREQ. -- CPU_WriteMem(4 bytes @ 0xE000ED0C) >0x0D TIF> >0x28 TIF> -- CPU_ReadMem(4 bytes @ 0xE000EDF0) -- CPU_ReadMem(4 bytes @ 0xE000EDF0) -- CPU_WriteMem(4 bytes @ 0xE000EDF0) -- CPU_WriteMem(4 bytes @ 0xE000EDFC) -- CPU_ReadMem(4 bytes @ 0xE000EDF0) -- CPU_WriteMem(4 bytes @ 0xE0002000)
 -- CPU_ReadMem(4 bytes @ 0xE000EDFC) -- CPU_ReadMem(4 bytes @ 0xE0001000) (0066ms, 10619ms total)
T3C78 109:827 JLINK_ReadReg(R15 (PC))  returns 0x000000C0 (0000ms, 10619ms total)
T3C78 109:827 JLINK_ReadReg(XPSR)  returns 0x01000000 (0000ms, 10619ms total)
T3C78 109:827 JLINK_ReadReg(R0)  returns 0x00000000 (0000ms, 10619ms total)
T3C78 109:827 JLINK_ReadReg(R1)  returns 0x00000000 (0000ms, 10619ms total)
T3C78 109:827 JLINK_ReadReg(R2)  returns 0x00000000 (0000ms, 10619ms total)
T3C78 109:827 JLINK_ReadReg(R3)  returns 0x00000000 (0000ms, 10619ms total)
T3C78 109:827 JLINK_ReadReg(R4)  returns 0x00000000 (0000ms, 10619ms total)
T3C78 109:827 JLINK_ReadReg(R5)  returns 0x00000000 (0000ms, 10619ms total)
T3C78 109:827 JLINK_ReadReg(R6)  returns 0x00000000 (0000ms, 10619ms total)
T3C78 109:827 JLINK_ReadReg(R7)  returns 0x00000000 (0000ms, 10619ms total)
T3C78 109:827 JLINK_ReadReg(R8)  returns 0x00000000 (0000ms, 10619ms total)
T3C78 109:827 JLINK_ReadReg(R9)  returns 0x00000000 (0000ms, 10619ms total)
T3C78 109:827 JLINK_ReadReg(R10)  returns 0x00000000 (0000ms, 10619ms total)
T3C78 109:827 JLINK_ReadReg(R11)  returns 0x00000000 (0000ms, 10619ms total)
T3C78 109:827 JLINK_ReadReg(R12)  returns 0x00000000 (0000ms, 10619ms total)
T3C78 109:827 JLINK_ReadReg(R13 (SP))  returns 0x10007758 (0000ms, 10619ms total)
T3C78 109:827 JLINK_ReadReg(R14)  returns 0xFFFFFFFF (0000ms, 10619ms total)
T3C78 109:827 JLINK_ReadReg(R15 (PC))  returns 0x000000C0 (0000ms, 10619ms total)
T3C78 109:827 JLINK_ReadReg(XPSR)  returns 0x01000000 (0000ms, 10619ms total)
T3C78 109:827 JLINK_ReadReg(MSP)  returns 0x10007758 (0000ms, 10619ms total)
T3C78 109:827 JLINK_ReadReg(PSP)  returns 0x00000000 (0000ms, 10619ms total)
T3C78 109:827 JLINK_ReadReg(CFBP)  returns 0x00000000 (0000ms, 10619ms total)
T3C78 109:827 JLINK_ReadReg(FPSCR)  returns 0x00000000 (0005ms, 10624ms total)
T3C78 109:832 JLINK_ReadReg(FPS0)  returns 0x00000000 (0000ms, 10624ms total)
T3C78 109:832 JLINK_ReadReg(FPS1)  returns 0x00000000 (0000ms, 10624ms total)
T3C78 109:832 JLINK_ReadReg(FPS2)  returns 0x00000000 (0000ms, 10624ms total)
T3C78 109:832 JLINK_ReadReg(FPS3)  returns 0x00000000 (0000ms, 10624ms total)
T3C78 109:832 JLINK_ReadReg(FPS4)  returns 0x00000000 (0000ms, 10624ms total)
T3C78 109:832 JLINK_ReadReg(FPS5)  returns 0x00000000 (0000ms, 10624ms total)
T3C78 109:832 JLINK_ReadReg(FPS6)  returns 0x00000000 (0000ms, 10624ms total)
T3C78 109:832 JLINK_ReadReg(FPS7)  returns 0x00000000 (0001ms, 10625ms total)
T3C78 109:833 JLINK_ReadReg(FPS8)  returns 0x00000000 (0000ms, 10625ms total)
T3C78 109:833 JLINK_ReadReg(FPS9)  returns 0x00000000 (0000ms, 10625ms total)
T3C78 109:833 JLINK_ReadReg(FPS10)  returns 0x00000000 (0000ms, 10625ms total)
T3C78 109:833 JLINK_ReadReg(FPS11)  returns 0x00000000 (0000ms, 10625ms total)
T3C78 109:833 JLINK_ReadReg(FPS12)  returns 0x00000000 (0000ms, 10625ms total)
T3C78 109:833 JLINK_ReadReg(FPS13)  returns 0x00000000 (0000ms, 10625ms total)
T3C78 109:833 JLINK_ReadReg(FPS14)  returns 0x00000000 (0000ms, 10625ms total)
T3C78 109:833 JLINK_ReadReg(FPS15)  returns 0x00000000 (0000ms, 10625ms total)
T3C78 109:833 JLINK_ReadReg(FPS16)  returns 0x00000000 (0000ms, 10625ms total)
T3C78 109:833 JLINK_ReadReg(FPS17)  returns 0x00000000 (0000ms, 10625ms total)
T3C78 109:833 JLINK_ReadReg(FPS18)  returns 0x00000000 (0000ms, 10625ms total)
T3C78 109:833 JLINK_ReadReg(FPS19)  returns 0x00000000 (0000ms, 10625ms total)
T3C78 109:833 JLINK_ReadReg(FPS20)  returns 0x00000000 (0000ms, 10625ms total)
T3C78 109:833 JLINK_ReadReg(FPS21)  returns 0x00000000 (0000ms, 10625ms total)
T3C78 109:833 JLINK_ReadReg(FPS22)  returns 0x00000000 (0000ms, 10625ms total)
T3C78 109:833 JLINK_ReadReg(FPS23)  returns 0x00000000 (0000ms, 10625ms total)
T3C78 109:833 JLINK_ReadReg(FPS24)  returns 0x00000000 (0000ms, 10625ms total)
T3C78 109:833 JLINK_ReadReg(FPS25)  returns 0x00000000 (0000ms, 10625ms total)
T3C78 109:833 JLINK_ReadReg(FPS26)  returns 0x00000000 (0000ms, 10625ms total)
T3C78 109:833 JLINK_ReadReg(FPS27)  returns 0x00000000 (0000ms, 10625ms total)
T3C78 109:833 JLINK_ReadReg(FPS28)  returns 0x00000000 (0000ms, 10625ms total)
T3C78 109:833 JLINK_ReadReg(FPS29)  returns 0x00000000 (0000ms, 10625ms total)
T3C78 109:833 JLINK_ReadReg(FPS30)  returns 0x00000000 (0000ms, 10625ms total)
T3C78 109:833 JLINK_ReadReg(FPS31)  returns 0x00000000 (0000ms, 10625ms total)
T3C78 109:833 JLINK_ReadMemU32(0xE0001004, 0x0001 Items, ...) - Data: 00 00 00 00  returns 0x01 (0000ms, 10625ms total)
T3C78 109:939 JLINK_ReadMemEx(0x000000BE, 0x0002 Bytes, ..., Flags = 0x02000000) -- CPU_ReadMem(64 bytes @ 0x00000080) -- Updating C cache (64 bytes @ 0x00000080) -- Read from C cache (2 bytes @ 0x000000BE) - Data: 00 00  returns 0x02 (0001ms, 10626ms total)
T3C78 109:940 JLINK_ReadMemEx(0x000000C0, 0x003C Bytes, ..., Flags = 0x02000000) -- CPU_ReadMem(64 bytes @ 0x000000C0) -- Updating C cache (64 bytes @ 0x000000C0) -- Read from C cache (60 bytes @ 0x000000C0) - Data: 4E F6 88 50 CE F2 00 00 01 68 41 F4 70 01 01 60 ...  returns 0x3C (0000ms, 10626ms total)
T2398 111:293 JLINK_ReadMemEx(0x000000C0, 0x0002 Bytes, ..., Flags = 0x02000000) -- Read from C cache (2 bytes @ 0x000000C0) - Data: 4E F6  returns 0x02 (0000ms, 10626ms total)
T2398 111:293 JLINK_SetBPEx(Addr = 0x00001BA8, Type = 0xFFFFFFF2)  returns 0x00000001 (0000ms, 10626ms total)
T2398 111:293 JLINK_Go() -- CPU_WriteMem(4 bytes @ 0xE0002000) -- CPU_ReadMem(4 bytes @ 0xE0001000) -- CPU_WriteMem(4 bytes @ 0xE0002008) -- CPU_WriteMem(4 bytes @ 0xE000200C) -- CPU_WriteMem(4 bytes @ 0xE0002010) -- CPU_WriteMem(4 bytes @ 0xE0002014) -- CPU_WriteMem(4 bytes @ 0xE0002018) -- CPU_WriteMem(4 bytes @ 0xE000201C) -- CPU_WriteMem(4 bytes @ 0xE0001004) (0003ms, 10629ms total)
T2398 111:397 JLINK_IsHalted()  returns TRUE (0003ms, 10632ms total)
T2398 111:400 JLINK_Halt()  returns 0x00 (0000ms, 10629ms total)
T2398 111:400 JLINK_IsHalted()  returns TRUE (0000ms, 10629ms total)
T2398 111:400 JLINK_IsHalted()  returns TRUE (0000ms, 10629ms total)
T2398 111:400 JLINK_IsHalted()  returns TRUE (0000ms, 10629ms total)
T2398 111:400 JLINK_ReadReg(R15 (PC))  returns 0x00001BA8 (0000ms, 10629ms total)
T2398 111:400 JLINK_ReadReg(XPSR)  returns 0x21000000 (0000ms, 10629ms total)
T2398 111:400 JLINK_ClrBPEx(BPHandle = 0x00000001)  returns 0x00 (0000ms, 10629ms total)
T2398 111:400 JLINK_ReadMemU32(0xE000ED30, 0x0001 Items, ...) -- CPU_ReadMem(4 bytes @ 0xE000ED30) - Data: 02 00 00 00  returns 0x01 (0000ms, 10629ms total)
T2398 111:400 JLINK_ReadMemU32(0xE0001028, 0x0001 Items, ...) -- CPU_ReadMem(4 bytes @ 0xE0001028) - Data: 00 00 00 00  returns 0x01 (0001ms, 10630ms total)
T2398 111:401 JLINK_ReadMemU32(0xE0001038, 0x0001 Items, ...) -- CPU_ReadMem(4 bytes @ 0xE0001038) - Data: 00 02 00 00  returns 0x01 (0000ms, 10630ms total)
T2398 111:401 JLINK_ReadMemU32(0xE0001048, 0x0001 Items, ...) -- CPU_ReadMem(4 bytes @ 0xE0001048) - Data: 00 00 00 00  returns 0x01 (0000ms, 10630ms total)
T2398 111:401 JLINK_ReadMemU32(0xE0001058, 0x0001 Items, ...) -- CPU_ReadMem(4 bytes @ 0xE0001058) - Data: 00 00 00 00  returns 0x01 (0001ms, 10631ms total)
T2398 111:402 JLINK_ReadReg(R0)  returns 0x10007558 (0000ms, 10631ms total)
T2398 111:402 JLINK_ReadReg(R1)  returns 0x10007558 (0000ms, 10631ms total)
T2398 111:402 JLINK_ReadReg(R2)  returns 0x10007558 (0000ms, 10631ms total)
T2398 111:402 JLINK_ReadReg(R3)  returns 0x10007558 (0000ms, 10631ms total)
T2398 111:402 JLINK_ReadReg(R4)  returns 0x00000000 (0000ms, 10631ms total)
T2398 111:402 JLINK_ReadReg(R5)  returns 0x100074F8 (0000ms, 10631ms total)
T2398 111:402 JLINK_ReadReg(R6)  returns 0x00000000 (0000ms, 10631ms total)
T2398 111:402 JLINK_ReadReg(R7)  returns 0x00000000 (0000ms, 10631ms total)
T2398 111:402 JLINK_ReadReg(R8)  returns 0x00000000 (0000ms, 10631ms total)
T2398 111:402 JLINK_ReadReg(R9)  returns 0x00000000 (0000ms, 10631ms total)
T2398 111:402 JLINK_ReadReg(R10)  returns 0x000040E0 (0000ms, 10631ms total)
T2398 111:402 JLINK_ReadReg(R11)  returns 0x00000000 (0000ms, 10631ms total)
T2398 111:402 JLINK_ReadReg(R12)  returns 0x10007538 (0000ms, 10631ms total)
T2398 111:402 JLINK_ReadReg(R13 (SP))  returns 0x10007758 (0000ms, 10631ms total)
T2398 111:402 JLINK_ReadReg(R14)  returns 0x000001C7 (0000ms, 10631ms total)
T2398 111:402 JLINK_ReadReg(R15 (PC))  returns 0x00001BA8 (0000ms, 10631ms total)
T2398 111:402 JLINK_ReadReg(XPSR)  returns 0x21000000 (0000ms, 10631ms total)
T2398 111:402 JLINK_ReadReg(MSP)  returns 0x10007758 (0000ms, 10631ms total)
T2398 111:402 JLINK_ReadReg(PSP)  returns 0x00000000 (0000ms, 10631ms total)
T2398 111:402 JLINK_ReadReg(CFBP)  returns 0x04000000 (0000ms, 10631ms total)
T2398 111:402 JLINK_ReadReg(FPSCR)  returns 0x00000000 (0004ms, 10635ms total)
T2398 111:406 JLINK_ReadReg(FPS0)  returns 0x00000000 (0000ms, 10635ms total)
T2398 111:406 JLINK_ReadReg(FPS1)  returns 0x00000000 (0000ms, 10635ms total)
T2398 111:406 JLINK_ReadReg(FPS2)  returns 0x00000000 (0000ms, 10635ms total)
T2398 111:406 JLINK_ReadReg(FPS3)  returns 0x00000000 (0000ms, 10635ms total)
T2398 111:406 JLINK_ReadReg(FPS4)  returns 0x00000000 (0000ms, 10635ms total)
T2398 111:406 JLINK_ReadReg(FPS5)  returns 0x00000000 (0000ms, 10635ms total)
T2398 111:406 JLINK_ReadReg(FPS6)  returns 0x00000000 (0000ms, 10635ms total)
T2398 111:406 JLINK_ReadReg(FPS7)  returns 0x00000000 (0001ms, 10636ms total)
T2398 111:407 JLINK_ReadReg(FPS8)  returns 0x00000000 (0000ms, 10636ms total)
T2398 111:407 JLINK_ReadReg(FPS9)  returns 0x00000000 (0000ms, 10636ms total)
T2398 111:407 JLINK_ReadReg(FPS10)  returns 0x00000000 (0000ms, 10636ms total)
T2398 111:407 JLINK_ReadReg(FPS11)  returns 0x00000000 (0000ms, 10636ms total)
T2398 111:407 JLINK_ReadReg(FPS12)  returns 0x00000000 (0000ms, 10636ms total)
T2398 111:407 JLINK_ReadReg(FPS13)  returns 0x00000000 (0000ms, 10636ms total)
T2398 111:407 JLINK_ReadReg(FPS14)  returns 0x00000000 (0000ms, 10636ms total)
T2398 111:407 JLINK_ReadReg(FPS15)  returns 0x00000000 (0000ms, 10636ms total)
T2398 111:407 JLINK_ReadReg(FPS16)  returns 0x00000000 (0000ms, 10636ms total)
T2398 111:407 JLINK_ReadReg(FPS17)  returns 0x00000000 (0000ms, 10636ms total)
T2398 111:407 JLINK_ReadReg(FPS18)  returns 0x00000000 (0000ms, 10636ms total)
T2398 111:407 JLINK_ReadReg(FPS19)  returns 0x00000000 (0000ms, 10636ms total)
T2398 111:407 JLINK_ReadReg(FPS20)  returns 0x00000000 (0000ms, 10636ms total)
T2398 111:407 JLINK_ReadReg(FPS21)  returns 0x00000000 (0000ms, 10636ms total)
T2398 111:407 JLINK_ReadReg(FPS22)  returns 0x00000000 (0000ms, 10636ms total)
T2398 111:407 JLINK_ReadReg(FPS23)  returns 0x00000000 (0000ms, 10636ms total)
T2398 111:407 JLINK_ReadReg(FPS24)  returns 0x00000000 (0000ms, 10636ms total)
T2398 111:407 JLINK_ReadReg(FPS25)  returns 0x00000000 (0000ms, 10636ms total)
T2398 111:407 JLINK_ReadReg(FPS26)  returns 0x00000000 (0000ms, 10636ms total)
T2398 111:407 JLINK_ReadReg(FPS27)  returns 0x00000000 (0000ms, 10636ms total)
T2398 111:407 JLINK_ReadReg(FPS28)  returns 0x00000000 (0000ms, 10636ms total)
T2398 111:407 JLINK_ReadReg(FPS29)  returns 0x00000000 (0000ms, 10636ms total)
T2398 111:407 JLINK_ReadReg(FPS30)  returns 0x00000000 (0000ms, 10636ms total)
T2398 111:407 JLINK_ReadReg(FPS31)  returns 0x00000000 (0000ms, 10636ms total)
T3C78 111:410 JLINK_ReadMemU32(0xE0001004, 0x0001 Items, ...) -- CPU_ReadMem(4 bytes @ 0xE0001004) - Data: 95 F9 04 00  returns 0x01 (0001ms, 10637ms total)
T3C78 111:414 JLINK_ReadMemEx(0x00001AA8, 0x003C Bytes, ..., Flags = 0x02000000) -- CPU_ReadMem(128 bytes @ 0x00001A80) -- Updating C cache (128 bytes @ 0x00001A80) -- Read from C cache (60 bytes @ 0x00001AA8) - Data: 4C 0A F0 EE 6C 0A FE F7 BB FF B0 EE 40 BA F0 EE ...  returns 0x3C (0001ms, 10638ms total)
T3C78 111:415 JLINK_ReadMemEx(0x00001AE4, 0x003C Bytes, ..., Flags = 0x02000000) -- CPU_ReadMem(64 bytes @ 0x00001B00) -- Updating C cache (64 bytes @ 0x00001B00) -- Read from C cache (60 bytes @ 0x00001AE4) - Data: 41 F8 24 00 2E E0 00 98 01 F0 E0 FA 41 EC 1C 0B ...  returns 0x3C (0001ms, 10639ms total)
T3C78 111:416 JLINK_ReadMemEx(0x00001B20, 0x003C Bytes, ..., Flags = 0x02000000) -- CPU_ReadMem(64 bytes @ 0x00001B40) -- Updating C cache (64 bytes @ 0x00001B40) -- Read from C cache (60 bytes @ 0x00001B20) - Data: 53 EC 10 2B 00 F0 02 FA 41 EC 19 0B 00 F0 9C F8 ...  returns 0x3C (0001ms, 10640ms total)
T3C78 111:417 JLINK_ReadMemEx(0x00001B5C, 0x003C Bytes, ..., Flags = 0x02000000) -- CPU_ReadMem(64 bytes @ 0x00001B80) -- Updating C cache (64 bytes @ 0x00001B80) -- Read from C cache (60 bytes @ 0x00001B5C) - Data: 11 48 80 69 0D 49 01 EB 80 00 01 B0 BD EC 0C 8B ...  returns 0x3C (0000ms, 10640ms total)
T3C78 111:417 JLINK_ReadMemEx(0x00001BA6, 0x0002 Bytes, ..., Flags = 0x02000000) -- Read from C cache (2 bytes @ 0x00001BA6) - Data: 00 10  returns 0x02 (0000ms, 10640ms total)
T3C78 111:417 JLINK_ReadMemEx(0x00001BA8, 0x003C Bytes, ..., Flags = 0x02000000) -- CPU_ReadMem(64 bytes @ 0x00001BC0) -- Updating C cache (64 bytes @ 0x00001BC0) -- Read from C cache (60 bytes @ 0x00001BA8) - Data: 10 B5 00 F0 25 F8 00 20 10 BD 10 B5 02 46 0B 46 ...  returns 0x3C (0001ms, 10641ms total)
T2398 149:639 JLINK_ReadMemEx(0x00001BA8, 0x0002 Bytes, ..., Flags = 0x02000000) -- Read from C cache (2 bytes @ 0x00001BA8) - Data: 10 B5  returns 0x02 (0000ms, 10641ms total)
T2398 149:639 JLINK_Step() -- Read from C cache (2 bytes @ 0x00001BA8) -- CPU_ReadMem(4 bytes @ 0xE000ED18) -- CPU_WriteMem(4 bytes @ 0xE000ED18) -- CPU_ReadMem(4 bytes @ 0xE000ED18) -- CPU_WriteMem(4 bytes @ 0xE000ED18) -- CPU_WriteMem(8 bytes @ 0x10007750) -- Simulated  returns 0x00 (0001ms, 10642ms total)
T2398 149:640 JLINK_ReadReg(R15 (PC))  returns 0x00001BAA (0000ms, 10642ms total)
T2398 149:640 JLINK_ReadReg(XPSR)  returns 0x21000000 (0000ms, 10642ms total)
T2398 149:640 JLINK_Step() -- Read from C cache (2 bytes @ 0x00001BAA) -- Read from C cache (2 bytes @ 0x00001BAC) -- Simulated  returns 0x00 (0000ms, 10642ms total)
T2398 149:640 JLINK_ReadReg(R15 (PC))  returns 0x00001BF8 (0000ms, 10642ms total)
T2398 149:640 JLINK_ReadReg(XPSR)  returns 0x21000000 (0000ms, 10642ms total)
T2398 149:641 JLINK_ReadReg(R0)  returns 0x10007558 (0000ms, 10642ms total)
T2398 149:641 JLINK_ReadReg(R1)  returns 0x10007558 (0000ms, 10642ms total)
T2398 149:641 JLINK_ReadReg(R2)  returns 0x10007558 (0000ms, 10642ms total)
T2398 149:641 JLINK_ReadReg(R3)  returns 0x10007558 (0000ms, 10642ms total)
T2398 149:641 JLINK_ReadReg(R4)  returns 0x00000000 (0000ms, 10642ms total)
T2398 149:641 JLINK_ReadReg(R5)  returns 0x100074F8 (0000ms, 10642ms total)
T2398 149:641 JLINK_ReadReg(R6)  returns 0x00000000 (0000ms, 10642ms total)
T2398 149:641 JLINK_ReadReg(R7)  returns 0x00000000 (0000ms, 10642ms total)
T2398 149:641 JLINK_ReadReg(R8)  returns 0x00000000 (0000ms, 10642ms total)
T2398 149:641 JLINK_ReadReg(R9)  returns 0x00000000 (0000ms, 10642ms total)
T2398 149:641 JLINK_ReadReg(R10)  returns 0x000040E0 (0000ms, 10642ms total)
T2398 149:641 JLINK_ReadReg(R11)  returns 0x00000000 (0000ms, 10642ms total)
T2398 149:641 JLINK_ReadReg(R12)  returns 0x10007538 (0000ms, 10642ms total)
T2398 149:641 JLINK_ReadReg(R13 (SP))  returns 0x10007750 (0000ms, 10642ms total)
T2398 149:641 JLINK_ReadReg(R14)  returns 0x00001BAF (0000ms, 10642ms total)
T2398 149:641 JLINK_ReadReg(R15 (PC))  returns 0x00001BF8 (0000ms, 10642ms total)
T2398 149:641 JLINK_ReadReg(XPSR)  returns 0x21000000 (0000ms, 10642ms total)
T2398 149:641 JLINK_ReadReg(MSP)  returns 0x10007750 (0000ms, 10642ms total)
T2398 149:641 JLINK_ReadReg(PSP)  returns 0x00000000 (0000ms, 10642ms total)
T2398 149:641 JLINK_ReadReg(CFBP)  returns 0x04000000 (0000ms, 10642ms total)
T2398 149:641 JLINK_ReadReg(FPSCR)  returns 0x00000000 (0000ms, 10642ms total)
T2398 149:641 JLINK_ReadReg(FPS0)  returns 0x00000000 (0000ms, 10642ms total)
T2398 149:641 JLINK_ReadReg(FPS1)  returns 0x00000000 (0000ms, 10642ms total)
T2398 149:641 JLINK_ReadReg(FPS2)  returns 0x00000000 (0000ms, 10642ms total)
T2398 149:641 JLINK_ReadReg(FPS3)  returns 0x00000000 (0000ms, 10642ms total)
T2398 149:641 JLINK_ReadReg(FPS4)  returns 0x00000000 (0000ms, 10642ms total)
T2398 149:641 JLINK_ReadReg(FPS5)  returns 0x00000000 (0000ms, 10642ms total)
T2398 149:641 JLINK_ReadReg(FPS6)  returns 0x00000000 (0000ms, 10642ms total)
T2398 149:641 JLINK_ReadReg(FPS7)  returns 0x00000000 (0000ms, 10642ms total)
T2398 149:641 JLINK_ReadReg(FPS8)  returns 0x00000000 (0000ms, 10642ms total)
T2398 149:641 JLINK_ReadReg(FPS9)  returns 0x00000000 (0000ms, 10642ms total)
T2398 149:641 JLINK_ReadReg(FPS10)  returns 0x00000000 (0000ms, 10642ms total)
T2398 149:641 JLINK_ReadReg(FPS11)  returns 0x00000000 (0000ms, 10642ms total)
T2398 149:641 JLINK_ReadReg(FPS12)  returns 0x00000000 (0000ms, 10642ms total)
T2398 149:641 JLINK_ReadReg(FPS13)  returns 0x00000000 (0000ms, 10642ms total)
T2398 149:641 JLINK_ReadReg(FPS14)  returns 0x00000000 (0000ms, 10642ms total)
T2398 149:641 JLINK_ReadReg(FPS15)  returns 0x00000000 (0000ms, 10642ms total)
T2398 149:641 JLINK_ReadReg(FPS16)  returns 0x00000000 (0000ms, 10642ms total)
T2398 149:641 JLINK_ReadReg(FPS17)  returns 0x00000000 (0000ms, 10642ms total)
T2398 149:641 JLINK_ReadReg(FPS18)  returns 0x00000000 (0000ms, 10642ms total)
T2398 149:641 JLINK_ReadReg(FPS19)  returns 0x00000000 (0000ms, 10642ms total)
T2398 149:641 JLINK_ReadReg(FPS20)  returns 0x00000000 (0000ms, 10642ms total)
T2398 149:641 JLINK_ReadReg(FPS21)  returns 0x00000000 (0000ms, 10642ms total)
T2398 149:641 JLINK_ReadReg(FPS22)  returns 0x00000000 (0000ms, 10642ms total)
T2398 149:641 JLINK_ReadReg(FPS23)  returns 0x00000000 (0000ms, 10642ms total)
T2398 149:641 JLINK_ReadReg(FPS24)  returns 0x00000000 (0000ms, 10642ms total)
T2398 149:641 JLINK_ReadReg(FPS25)  returns 0x00000000 (0000ms, 10642ms total)
T2398 149:641 JLINK_ReadReg(FPS26)  returns 0x00000000 (0000ms, 10642ms total)
T2398 149:641 JLINK_ReadReg(FPS27)  returns 0x00000000 (0000ms, 10642ms total)
T2398 149:641 JLINK_ReadReg(FPS28)  returns 0x00000000 (0000ms, 10642ms total)
T2398 149:641 JLINK_ReadReg(FPS29)  returns 0x00000000 (0000ms, 10642ms total)
T2398 149:641 JLINK_ReadReg(FPS30)  returns 0x00000000 (0000ms, 10642ms total)
T2398 149:641 JLINK_ReadReg(FPS31)  returns 0x00000000 (0000ms, 10642ms total)
T3C78 149:641 JLINK_ReadMemEx(0x10007754, 0x0004 Bytes, ..., Flags = 0x02000000) -- CPU_ReadMem(64 bytes @ 0x10007740) -- Updating C cache (64 bytes @ 0x10007740) -- Read from C cache (4 bytes @ 0x10007754) - Data: C7 01 00 00  returns 0x04 (0001ms, 10643ms total)
T3C78 149:642 JLINK_ReadMemEx(0x10007738, 0x0004 Bytes, ..., Flags = 0x02000000) -- CPU_ReadMem(64 bytes @ 0x10007700) -- Updating C cache (64 bytes @ 0x10007700) -- Read from C cache (4 bytes @ 0x10007738) - Data: 00 00 00 00  returns 0x04 (0001ms, 10644ms total)
T3C78 149:646 JLINK_ReadMemU32(0xE0001004, 0x0001 Items, ...) - Data: 99 F9 04 00  returns 0x01 (0000ms, 10644ms total)
T3C78 149:649 JLINK_ReadMemEx(0x00001AF8, 0x003C Bytes, ..., Flags = 0x02000000) -- Read from C cache (60 bytes @ 0x00001AF8) - Data: F0 EE 6C 0A FE F7 84 FD B0 EE 40 BA F0 EE 60 BA ...  returns 0x3C (0000ms, 10644ms total)
T3C78 149:649 JLINK_ReadMemEx(0x00001B34, 0x003C Bytes, ..., Flags = 0x02000000) -- Read from C cache (60 bytes @ 0x00001B34) - Data: 24 00 07 E0 1F ED F9 0A 16 48 00 EB 84 00 80 ED ...  returns 0x3C (0000ms, 10644ms total)
T3C78 149:649 JLINK_ReadMemEx(0x00001BA8, 0x003C Bytes, ..., Flags = 0x02000000) -- Read from C cache (60 bytes @ 0x00001BA8) - Data: 10 B5 00 F0 25 F8 00 20 10 BD 10 B5 02 46 0B 46 ...  returns 0x3C (0000ms, 10644ms total)
T3C78 149:649 JLINK_ReadMemEx(0x00001BE4, 0x001C Bytes, ..., Flags = 0x02000000) -- Read from C cache (28 bytes @ 0x00001BE4) - Data: 00 0A B0 EE 60 0A 0C 46 49 1C 99 42 EC DB 20 46 ...  returns 0x1C (0000ms, 10644ms total)
T3C78 149:649 JLINK_ReadMemEx(0x00001C00, 0x0020 Bytes, ..., Flags = 0x02000000) -- CPU_ReadMem(64 bytes @ 0x00001C00) -- Updating C cache (64 bytes @ 0x00001C00) -- Read from C cache (32 bytes @ 0x00001C00) - Data: 01 EB 84 00 FF F7 A4 FB 07 46 03 21 38 46 FF F7 ...  returns 0x20 (0001ms, 10645ms total)
T2398 151:772 JLINK_ReadMemEx(0x00001BF8, 0x0002 Bytes, ..., Flags = 0x02000000) -- Read from C cache (2 bytes @ 0x00001BF8) - Data: F8 B5  returns 0x02 (0000ms, 10645ms total)
T2398 151:772 JLINK_Step() -- Read from C cache (2 bytes @ 0x00001BF8) -- CPU_WriteMem(24 bytes @ 0x10007738) -- Simulated  returns 0x00 (0001ms, 10646ms total)
T2398 151:773 JLINK_ReadReg(R15 (PC))  returns 0x00001BFA (0000ms, 10646ms total)
T2398 151:773 JLINK_ReadReg(XPSR)  returns 0x21000000 (0000ms, 10646ms total)
T2398 151:773 JLINK_ReadReg(R0)  returns 0x10007558 (0000ms, 10646ms total)
T2398 151:773 JLINK_ReadReg(R1)  returns 0x10007558 (0000ms, 10646ms total)
T2398 151:773 JLINK_ReadReg(R2)  returns 0x10007558 (0000ms, 10646ms total)
T2398 151:773 JLINK_ReadReg(R3)  returns 0x10007558 (0000ms, 10646ms total)
T2398 151:773 JLINK_ReadReg(R4)  returns 0x00000000 (0000ms, 10646ms total)
T2398 151:773 JLINK_ReadReg(R5)  returns 0x100074F8 (0000ms, 10646ms total)
T2398 151:773 JLINK_ReadReg(R6)  returns 0x00000000 (0000ms, 10646ms total)
T2398 151:773 JLINK_ReadReg(R7)  returns 0x00000000 (0000ms, 10646ms total)
T2398 151:773 JLINK_ReadReg(R8)  returns 0x00000000 (0001ms, 10647ms total)
T2398 151:774 JLINK_ReadReg(R9)  returns 0x00000000 (0000ms, 10647ms total)
T2398 151:774 JLINK_ReadReg(R10)  returns 0x000040E0 (0000ms, 10647ms total)
T2398 151:774 JLINK_ReadReg(R11)  returns 0x00000000 (0000ms, 10647ms total)
T2398 151:774 JLINK_ReadReg(R12)  returns 0x10007538 (0000ms, 10647ms total)
T2398 151:774 JLINK_ReadReg(R13 (SP))  returns 0x10007738 (0000ms, 10647ms total)
T2398 151:774 JLINK_ReadReg(R14)  returns 0x00001BAF (0000ms, 10647ms total)
T2398 151:774 JLINK_ReadReg(R15 (PC))  returns 0x00001BFA (0000ms, 10647ms total)
T2398 151:774 JLINK_ReadReg(XPSR)  returns 0x21000000 (0000ms, 10647ms total)
T2398 151:774 JLINK_ReadReg(MSP)  returns 0x10007738 (0000ms, 10647ms total)
T2398 151:774 JLINK_ReadReg(PSP)  returns 0x00000000 (0000ms, 10647ms total)
T2398 151:774 JLINK_ReadReg(CFBP)  returns 0x04000000 (0000ms, 10647ms total)
T2398 151:774 JLINK_ReadReg(FPSCR)  returns 0x00000000 (0000ms, 10647ms total)
T2398 151:774 JLINK_ReadReg(FPS0)  returns 0x00000000 (0000ms, 10647ms total)
T2398 151:774 JLINK_ReadReg(FPS1)  returns 0x00000000 (0000ms, 10647ms total)
T2398 151:774 JLINK_ReadReg(FPS2)  returns 0x00000000 (0000ms, 10647ms total)
T2398 151:774 JLINK_ReadReg(FPS3)  returns 0x00000000 (0000ms, 10647ms total)
T2398 151:774 JLINK_ReadReg(FPS4)  returns 0x00000000 (0000ms, 10647ms total)
T2398 151:774 JLINK_ReadReg(FPS5)  returns 0x00000000 (0000ms, 10647ms total)
T2398 151:774 JLINK_ReadReg(FPS6)  returns 0x00000000 (0000ms, 10647ms total)
T2398 151:774 JLINK_ReadReg(FPS7)  returns 0x00000000 (0000ms, 10647ms total)
T2398 151:774 JLINK_ReadReg(FPS8)  returns 0x00000000 (0000ms, 10647ms total)
T2398 151:774 JLINK_ReadReg(FPS9)  returns 0x00000000 (0000ms, 10647ms total)
T2398 151:774 JLINK_ReadReg(FPS10)  returns 0x00000000 (0000ms, 10647ms total)
T2398 151:774 JLINK_ReadReg(FPS11)  returns 0x00000000 (0000ms, 10647ms total)
T2398 151:774 JLINK_ReadReg(FPS12)  returns 0x00000000 (0000ms, 10647ms total)
T2398 151:774 JLINK_ReadReg(FPS13)  returns 0x00000000 (0000ms, 10647ms total)
T2398 151:774 JLINK_ReadReg(FPS14)  returns 0x00000000 (0000ms, 10647ms total)
T2398 151:774 JLINK_ReadReg(FPS15)  returns 0x00000000 (0000ms, 10647ms total)
T2398 151:774 JLINK_ReadReg(FPS16)  returns 0x00000000 (0000ms, 10647ms total)
T2398 151:774 JLINK_ReadReg(FPS17)  returns 0x00000000 (0000ms, 10647ms total)
T2398 151:774 JLINK_ReadReg(FPS18)  returns 0x00000000 (0000ms, 10647ms total)
T2398 151:774 JLINK_ReadReg(FPS19)  returns 0x00000000 (0000ms, 10647ms total)
T2398 151:774 JLINK_ReadReg(FPS20)  returns 0x00000000 (0000ms, 10647ms total)
T2398 151:774 JLINK_ReadReg(FPS21)  returns 0x00000000 (0000ms, 10647ms total)
T2398 151:774 JLINK_ReadReg(FPS22)  returns 0x00000000 (0000ms, 10647ms total)
T2398 151:774 JLINK_ReadReg(FPS23)  returns 0x00000000 (0000ms, 10647ms total)
T2398 151:774 JLINK_ReadReg(FPS24)  returns 0x00000000 (0000ms, 10647ms total)
T2398 151:774 JLINK_ReadReg(FPS25)  returns 0x00000000 (0000ms, 10647ms total)
T2398 151:774 JLINK_ReadReg(FPS26)  returns 0x00000000 (0000ms, 10647ms total)
T2398 151:774 JLINK_ReadReg(FPS27)  returns 0x00000000 (0000ms, 10647ms total)
T2398 151:774 JLINK_ReadReg(FPS28)  returns 0x00000000 (0000ms, 10647ms total)
T2398 151:774 JLINK_ReadReg(FPS29)  returns 0x00000000 (0000ms, 10647ms total)
T2398 151:774 JLINK_ReadReg(FPS30)  returns 0x00000000 (0000ms, 10647ms total)
T2398 151:774 JLINK_ReadReg(FPS31)  returns 0x00000000 (0000ms, 10647ms total)
T3C78 151:774 JLINK_ReadMemEx(0x1000774C, 0x0004 Bytes, ..., Flags = 0x02000000) -- CPU_ReadMem(64 bytes @ 0x10007740) -- Updating C cache (64 bytes @ 0x10007740) -- Read from C cache (4 bytes @ 0x1000774C) - Data: AF 1B 00 00  returns 0x04 (0001ms, 10648ms total)
T3C78 151:775 JLINK_ReadMemEx(0x1000773C, 0x0004 Bytes, ..., Flags = 0x02000000) -- CPU_ReadMem(64 bytes @ 0x10007700) -- Updating C cache (64 bytes @ 0x10007700) -- Read from C cache (4 bytes @ 0x1000773C) - Data: 00 00 00 00  returns 0x04 (0001ms, 10649ms total)
T3C78 151:776 JLINK_ReadMemEx(0x10007740, 0x0004 Bytes, ..., Flags = 0x02000000) -- Read from C cache (4 bytes @ 0x10007740) - Data: F8 74 00 10  returns 0x04 (0000ms, 10649ms total)
T3C78 151:776 JLINK_ReadMemEx(0x10007744, 0x0004 Bytes, ..., Flags = 0x02000000) -- Read from C cache (4 bytes @ 0x10007744) - Data: 00 00 00 00  returns 0x04 (0000ms, 10649ms total)
T3C78 151:776 JLINK_ReadMemEx(0x10007748, 0x0004 Bytes, ..., Flags = 0x02000000) -- Read from C cache (4 bytes @ 0x10007748) - Data: 00 00 00 00  returns 0x04 (0000ms, 10649ms total)
T3C78 151:776 JLINK_ReadMemEx(0x10007754, 0x0004 Bytes, ..., Flags = 0x02000000) -- Read from C cache (4 bytes @ 0x10007754) - Data: C7 01 00 00  returns 0x04 (0000ms, 10649ms total)
T3C78 151:776 JLINK_ReadMemEx(0x10007738, 0x0004 Bytes, ..., Flags = 0x02000000) -- Read from C cache (4 bytes @ 0x10007738) - Data: 58 75 00 10  returns 0x04 (0000ms, 10649ms total)
T3C78 151:778 JLINK_ReadMemU32(0xE0001004, 0x0001 Items, ...) - Data: A0 F9 04 00  returns 0x01 (0000ms, 10649ms total)
T3C78 151:780 JLINK_ReadMemEx(0x00001BF8, 0x0008 Bytes, ..., Flags = 0x02000000) -- Read from C cache (8 bytes @ 0x00001BF8) - Data: F8 B5 00 24 14 E0 11 49  returns 0x08 (0000ms, 10649ms total)
T3C78 151:780 JLINK_ReadMemEx(0x00001C00, 0x0034 Bytes, ..., Flags = 0x02000000) -- Read from C cache (52 bytes @ 0x00001C00) - Data: 01 EB 84 00 FF F7 A4 FB 07 46 03 21 38 46 FF F7 ...  returns 0x34 (0000ms, 10649ms total)
T2398 154:017 JLINK_ReadMemEx(0x00001BFA, 0x0002 Bytes, ..., Flags = 0x02000000) -- Read from C cache (2 bytes @ 0x00001BFA) - Data: 00 24  returns 0x02 (0001ms, 10650ms total)
T2398 154:018 JLINK_Step() -- Read from C cache (2 bytes @ 0x00001BFA) -- Simulated  returns 0x00 (0000ms, 10650ms total)
T2398 154:018 JLINK_ReadReg(R15 (PC))  returns 0x00001BFC (0000ms, 10650ms total)
T2398 154:018 JLINK_ReadReg(XPSR)  returns 0x61000000 (0000ms, 10650ms total)
T2398 154:018 JLINK_Step() -- Read from C cache (2 bytes @ 0x00001BFC) -- Simulated  returns 0x00 (0001ms, 10651ms total)
T2398 154:019 JLINK_ReadReg(R15 (PC))  returns 0x00001C28 (0000ms, 10651ms total)
T2398 154:019 JLINK_ReadReg(XPSR)  returns 0x61000000 (0000ms, 10651ms total)
T2398 154:019 JLINK_ReadMemEx(0x00001C26, 0x0002 Bytes, ..., Flags = 0x02000000) -- Read from C cache (2 bytes @ 0x00001C26) - Data: 08 34  returns 0x02 (0000ms, 10651ms total)
T2398 154:019 JLINK_ReadMemEx(0x00001C28, 0x003C Bytes, ..., Flags = 0x02000000) -- CPU_ReadMem(64 bytes @ 0x00001C40) -- Updating C cache (64 bytes @ 0x00001C40) -- Read from C cache (60 bytes @ 0x00001C28) - Data: B4 F5 48 7F E7 DB 00 EE 10 5A B8 EE C0 0A DF ED ...  returns 0x3C (0001ms, 10652ms total)
T2398 154:020 JLINK_ReadMemEx(0x00001C28, 0x0002 Bytes, ..., Flags = 0x02000000) -- Read from C cache (2 bytes @ 0x00001C28) - Data: B4 F5  returns 0x02 (0000ms, 10652ms total)
T2398 154:020 JLINK_ReadMemEx(0x00001C28, 0x003C Bytes, ..., Flags = 0x02000000) -- Read from C cache (60 bytes @ 0x00001C28) - Data: B4 F5 48 7F E7 DB 00 EE 10 5A B8 EE C0 0A DF ED ...  returns 0x3C (0000ms, 10652ms total)
T2398 154:020 JLINK_ReadMemEx(0x00001C28, 0x0002 Bytes, ..., Flags = 0x02000000) -- Read from C cache (2 bytes @ 0x00001C28) - Data: B4 F5  returns 0x02 (0000ms, 10652ms total)
T2398 154:020 JLINK_ReadMemEx(0x00001C2A, 0x0002 Bytes, ..., Flags = 0x02000000) -- Read from C cache (2 bytes @ 0x00001C2A) - Data: 48 7F  returns 0x02 (0000ms, 10652ms total)
T2398 154:020 JLINK_Step() -- Read from C cache (2 bytes @ 0x00001C28) -- Read from C cache (2 bytes @ 0x00001C2A) -- Simulated  returns 0x00 (0000ms, 10652ms total)
T2398 154:020 JLINK_ReadReg(R15 (PC))  returns 0x00001C2C (0000ms, 10652ms total)
T2398 154:020 JLINK_ReadReg(XPSR)  returns 0x81000000 (0000ms, 10652ms total)
T2398 154:020 JLINK_ReadMemEx(0x00001C2A, 0x0002 Bytes, ..., Flags = 0x02000000) -- Read from C cache (2 bytes @ 0x00001C2A) - Data: 48 7F  returns 0x02 (0000ms, 10652ms total)
T2398 154:020 JLINK_ReadMemEx(0x00001C2C, 0x003C Bytes, ..., Flags = 0x02000000) -- Read from C cache (60 bytes @ 0x00001C2C) - Data: E7 DB 00 EE 10 5A B8 EE C0 0A DF ED 05 0A 80 EE ...  returns 0x3C (0000ms, 10652ms total)
T2398 154:020 JLINK_ReadMemEx(0x00001C2C, 0x0002 Bytes, ..., Flags = 0x02000000) -- Read from C cache (2 bytes @ 0x00001C2C) - Data: E7 DB  returns 0x02 (0000ms, 10652ms total)
T2398 154:020 JLINK_ReadMemEx(0x00001C2C, 0x003C Bytes, ..., Flags = 0x02000000) -- Read from C cache (60 bytes @ 0x00001C2C) - Data: E7 DB 00 EE 10 5A B8 EE C0 0A DF ED 05 0A 80 EE ...  returns 0x3C (0001ms, 10653ms total)
T2398 154:021 JLINK_ReadMemEx(0x00001C2C, 0x0002 Bytes, ..., Flags = 0x02000000) -- Read from C cache (2 bytes @ 0x00001C2C) - Data: E7 DB  returns 0x02 (0000ms, 10653ms total)
T2398 154:021 JLINK_ReadMemEx(0x00001C2E, 0x0002 Bytes, ..., Flags = 0x02000000) -- Read from C cache (2 bytes @ 0x00001C2E) - Data: 00 EE  returns 0x02 (0000ms, 10653ms total)
T2398 154:021 JLINK_Step() -- Read from C cache (2 bytes @ 0x00001C2C) -- Simulated  returns 0x00 (0000ms, 10653ms total)
T2398 154:021 JLINK_ReadReg(R15 (PC))  returns 0x00001BFE (0000ms, 10653ms total)
T2398 154:021 JLINK_ReadReg(XPSR)  returns 0x81000000 (0000ms, 10653ms total)
T2398 154:021 JLINK_ReadReg(R0)  returns 0x10007558 (0000ms, 10653ms total)
T2398 154:021 JLINK_ReadReg(R1)  returns 0x10007558 (0000ms, 10653ms total)
T2398 154:021 JLINK_ReadReg(R2)  returns 0x10007558 (0000ms, 10653ms total)
T2398 154:021 JLINK_ReadReg(R3)  returns 0x10007558 (0001ms, 10654ms total)
T2398 154:022 JLINK_ReadReg(R4)  returns 0x00000000 (0000ms, 10654ms total)
T2398 154:022 JLINK_ReadReg(R5)  returns 0x100074F8 (0000ms, 10654ms total)
T2398 154:022 JLINK_ReadReg(R6)  returns 0x00000000 (0000ms, 10654ms total)
T2398 154:022 JLINK_ReadReg(R7)  returns 0x00000000 (0000ms, 10654ms total)
T2398 154:022 JLINK_ReadReg(R8)  returns 0x00000000 (0000ms, 10654ms total)
T2398 154:022 JLINK_ReadReg(R9)  returns 0x00000000 (0000ms, 10654ms total)
T2398 154:022 JLINK_ReadReg(R10)  returns 0x000040E0 (0000ms, 10654ms total)
T2398 154:022 JLINK_ReadReg(R11)  returns 0x00000000 (0000ms, 10654ms total)
T2398 154:022 JLINK_ReadReg(R12)  returns 0x10007538 (0000ms, 10654ms total)
T2398 154:022 JLINK_ReadReg(R13 (SP))  returns 0x10007738 (0000ms, 10654ms total)
T2398 154:022 JLINK_ReadReg(R14)  returns 0x00001BAF (0000ms, 10654ms total)
T2398 154:022 JLINK_ReadReg(R15 (PC))  returns 0x00001BFE (0000ms, 10654ms total)
T2398 154:022 JLINK_ReadReg(XPSR)  returns 0x81000000 (0000ms, 10654ms total)
T2398 154:022 JLINK_ReadReg(MSP)  returns 0x10007738 (0000ms, 10654ms total)
T2398 154:022 JLINK_ReadReg(PSP)  returns 0x00000000 (0000ms, 10654ms total)
T2398 154:022 JLINK_ReadReg(CFBP)  returns 0x04000000 (0000ms, 10654ms total)
T2398 154:022 JLINK_ReadReg(FPSCR)  returns 0x00000000 (0000ms, 10654ms total)
T2398 154:022 JLINK_ReadReg(FPS0)  returns 0x00000000 (0000ms, 10654ms total)
T2398 154:022 JLINK_ReadReg(FPS1)  returns 0x00000000 (0000ms, 10654ms total)
T2398 154:022 JLINK_ReadReg(FPS2)  returns 0x00000000 (0000ms, 10654ms total)
T2398 154:022 JLINK_ReadReg(FPS3)  returns 0x00000000 (0000ms, 10654ms total)
T2398 154:022 JLINK_ReadReg(FPS4)  returns 0x00000000 (0000ms, 10654ms total)
T2398 154:022 JLINK_ReadReg(FPS5)  returns 0x00000000 (0000ms, 10654ms total)
T2398 154:022 JLINK_ReadReg(FPS6)  returns 0x00000000 (0000ms, 10654ms total)
T2398 154:022 JLINK_ReadReg(FPS7)  returns 0x00000000 (0001ms, 10655ms total)
T2398 154:023 JLINK_ReadReg(FPS8)  returns 0x00000000 (0000ms, 10655ms total)
T2398 154:023 JLINK_ReadReg(FPS9)  returns 0x00000000 (0000ms, 10655ms total)
T2398 154:023 JLINK_ReadReg(FPS10)  returns 0x00000000 (0000ms, 10655ms total)
T2398 154:023 JLINK_ReadReg(FPS11)  returns 0x00000000 (0000ms, 10655ms total)
T2398 154:023 JLINK_ReadReg(FPS12)  returns 0x00000000 (0000ms, 10655ms total)
T2398 154:023 JLINK_ReadReg(FPS13)  returns 0x00000000 (0000ms, 10655ms total)
T2398 154:023 JLINK_ReadReg(FPS14)  returns 0x00000000 (0000ms, 10655ms total)
T2398 154:023 JLINK_ReadReg(FPS15)  returns 0x00000000 (0000ms, 10655ms total)
T2398 154:023 JLINK_ReadReg(FPS16)  returns 0x00000000 (0000ms, 10655ms total)
T2398 154:023 JLINK_ReadReg(FPS17)  returns 0x00000000 (0000ms, 10655ms total)
T2398 154:023 JLINK_ReadReg(FPS18)  returns 0x00000000 (0000ms, 10655ms total)
T2398 154:023 JLINK_ReadReg(FPS19)  returns 0x00000000 (0000ms, 10655ms total)
T2398 154:023 JLINK_ReadReg(FPS20)  returns 0x00000000 (0000ms, 10655ms total)
T2398 154:023 JLINK_ReadReg(FPS21)  returns 0x00000000 (0000ms, 10655ms total)
T2398 154:023 JLINK_ReadReg(FPS22)  returns 0x00000000 (0000ms, 10655ms total)
T2398 154:023 JLINK_ReadReg(FPS23)  returns 0x00000000 (0000ms, 10655ms total)
T2398 154:023 JLINK_ReadReg(FPS24)  returns 0x00000000 (0000ms, 10655ms total)
T2398 154:023 JLINK_ReadReg(FPS25)  returns 0x00000000 (0000ms, 10655ms total)
T2398 154:023 JLINK_ReadReg(FPS26)  returns 0x00000000 (0000ms, 10655ms total)
T2398 154:023 JLINK_ReadReg(FPS27)  returns 0x00000000 (0000ms, 10655ms total)
T2398 154:023 JLINK_ReadReg(FPS28)  returns 0x00000000 (0000ms, 10655ms total)
T2398 154:023 JLINK_ReadReg(FPS29)  returns 0x00000000 (0000ms, 10655ms total)
T2398 154:023 JLINK_ReadReg(FPS30)  returns 0x00000000 (0000ms, 10655ms total)
T2398 154:023 JLINK_ReadReg(FPS31)  returns 0x00000000 (0000ms, 10655ms total)
T3C78 154:026 JLINK_ReadMemEx(0x1000774C, 0x0004 Bytes, ..., Flags = 0x02000000) -- Read from C cache (4 bytes @ 0x1000774C) - Data: AF 1B 00 00  returns 0x04 (0000ms, 10655ms total)
T3C78 154:026 JLINK_ReadMemEx(0x1000773C, 0x0004 Bytes, ..., Flags = 0x02000000) -- Read from C cache (4 bytes @ 0x1000773C) - Data: 00 00 00 00  returns 0x04 (0000ms, 10655ms total)
T3C78 154:026 JLINK_ReadMemEx(0x10007740, 0x0004 Bytes, ..., Flags = 0x02000000) -- Read from C cache (4 bytes @ 0x10007740) - Data: F8 74 00 10  returns 0x04 (0000ms, 10655ms total)
T3C78 154:026 JLINK_ReadMemEx(0x10007744, 0x0004 Bytes, ..., Flags = 0x02000000) -- Read from C cache (4 bytes @ 0x10007744) - Data: 00 00 00 00  returns 0x04 (0000ms, 10655ms total)
T3C78 154:026 JLINK_ReadMemEx(0x10007748, 0x0004 Bytes, ..., Flags = 0x02000000) -- Read from C cache (4 bytes @ 0x10007748) - Data: 00 00 00 00  returns 0x04 (0000ms, 10655ms total)
T3C78 154:026 JLINK_ReadMemEx(0x10007754, 0x0004 Bytes, ..., Flags = 0x02000000) -- Read from C cache (4 bytes @ 0x10007754) - Data: C7 01 00 00  returns 0x04 (0000ms, 10655ms total)
T3C78 154:026 JLINK_ReadMemEx(0x10007738, 0x0004 Bytes, ..., Flags = 0x02000000) -- Read from C cache (4 bytes @ 0x10007738) - Data: 58 75 00 10  returns 0x04 (0000ms, 10655ms total)
T3C78 154:031 JLINK_ReadMemU32(0xE0001004, 0x0001 Items, ...) - Data: A4 F9 04 00  returns 0x01 (0000ms, 10655ms total)
T3C78 154:043 JLINK_ReadMemEx(0x00001BFE, 0x0002 Bytes, ..., Flags = 0x02000000) -- Read from C cache (2 bytes @ 0x00001BFE) - Data: 11 49  returns 0x02 (0000ms, 10655ms total)
T3C78 154:043 JLINK_ReadMemEx(0x00001C00, 0x003C Bytes, ..., Flags = 0x02000000) -- Read from C cache (60 bytes @ 0x00001C00) - Data: 01 EB 84 00 FF F7 A4 FB 07 46 03 21 38 46 FF F7 ...  returns 0x3C (0000ms, 10655ms total)
T2398 155:379 JLINK_ReadMemEx(0x00001BFE, 0x0002 Bytes, ..., Flags = 0x02000000) -- Read from C cache (2 bytes @ 0x00001BFE) - Data: 11 49  returns 0x02 (0000ms, 10655ms total)
T2398 155:379 JLINK_Step() -- Read from C cache (2 bytes @ 0x00001BFE) -- Read from C cache (4 bytes @ 0x00001C44) -- Simulated  returns 0x00 (0001ms, 10656ms total)
T2398 155:380 JLINK_ReadReg(R15 (PC))  returns 0x00001C00 (0000ms, 10656ms total)
T2398 155:380 JLINK_ReadReg(XPSR)  returns 0x81000000 (0000ms, 10656ms total)
T2398 155:380 JLINK_Step() -- Read from C cache (2 bytes @ 0x00001C00) -- Read from C cache (2 bytes @ 0x00001C02) -- Not simulated -- CPU_WriteMem(4 bytes @ 0xE0002008) -- CPU_WriteMem(4 bytes @ 0xE0001004)  returns 0x00 (0005ms, 10661ms total)
T2398 155:386 JLINK_ReadReg(R15 (PC))  returns 0x00001C04 (0000ms, 10661ms total)
T2398 155:386 JLINK_ReadReg(XPSR)  returns 0x81000000 (0000ms, 10661ms total)
T2398 155:386 JLINK_ReadMemEx(0x00001C02, 0x0002 Bytes, ..., Flags = 0x02000000) -- CPU_ReadMem(64 bytes @ 0x00001C00) -- Updating C cache (64 bytes @ 0x00001C00) -- Read from C cache (2 bytes @ 0x00001C02) - Data: 84 00  returns 0x02 (0001ms, 10662ms total)
T2398 155:387 JLINK_ReadMemEx(0x00001C04, 0x003C Bytes, ..., Flags = 0x02000000) -- Read from C cache (60 bytes @ 0x00001C04) - Data: FF F7 A4 FB 07 46 03 21 38 46 FF F7 D0 FF E1 17 ...  returns 0x3C (0000ms, 10662ms total)
T2398 155:387 JLINK_ReadMemEx(0x00001C04, 0x0002 Bytes, ..., Flags = 0x02000000) -- Read from C cache (2 bytes @ 0x00001C04) - Data: FF F7  returns 0x02 (0000ms, 10662ms total)
T2398 155:387 JLINK_Step() -- Read from C cache (2 bytes @ 0x00001C04) -- CPU_ReadMem(4 bytes @ 0xE0001004) -- Read from C cache (2 bytes @ 0x00001C06) -- Simulated  returns 0x00 (0001ms, 10663ms total)
T2398 155:388 JLINK_ReadReg(R15 (PC))  returns 0x00001350 (0000ms, 10663ms total)
T2398 155:388 JLINK_ReadReg(XPSR)  returns 0x81000000 (0000ms, 10663ms total)
T2398 155:388 JLINK_ReadReg(R0)  returns 0x100007D0 (0000ms, 10663ms total)
T2398 155:388 JLINK_ReadReg(R1)  returns 0x100007D0 (0000ms, 10663ms total)
T2398 155:388 JLINK_ReadReg(R2)  returns 0x10007558 (0000ms, 10663ms total)
T2398 155:388 JLINK_ReadReg(R3)  returns 0x10007558 (0000ms, 10663ms total)
T2398 155:388 JLINK_ReadReg(R4)  returns 0x00000000 (0000ms, 10663ms total)
T2398 155:388 JLINK_ReadReg(R5)  returns 0x100074F8 (0000ms, 10663ms total)
T2398 155:388 JLINK_ReadReg(R6)  returns 0x00000000 (0000ms, 10663ms total)
T2398 155:389 JLINK_ReadReg(R7)  returns 0x00000000 (0000ms, 10664ms total)
T2398 155:389 JLINK_ReadReg(R8)  returns 0x00000000 (0000ms, 10664ms total)
T2398 155:389 JLINK_ReadReg(R9)  returns 0x00000000 (0000ms, 10664ms total)
T2398 155:389 JLINK_ReadReg(R10)  returns 0x000040E0 (0000ms, 10664ms total)
T2398 155:389 JLINK_ReadReg(R11)  returns 0x00000000 (0000ms, 10664ms total)
T2398 155:389 JLINK_ReadReg(R12)  returns 0x10007538 (0000ms, 10664ms total)
T2398 155:389 JLINK_ReadReg(R13 (SP))  returns 0x10007738 (0000ms, 10664ms total)
T2398 155:389 JLINK_ReadReg(R14)  returns 0x00001C09 (0000ms, 10664ms total)
T2398 155:389 JLINK_ReadReg(R15 (PC))  returns 0x00001350 (0000ms, 10664ms total)
T2398 155:389 JLINK_ReadReg(XPSR)  returns 0x81000000 (0000ms, 10664ms total)
T2398 155:389 JLINK_ReadReg(MSP)  returns 0x10007738 (0000ms, 10664ms total)
T2398 155:389 JLINK_ReadReg(PSP)  returns 0x00000000 (0000ms, 10664ms total)
T2398 155:389 JLINK_ReadReg(CFBP)  returns 0x04000000 (0000ms, 10664ms total)
T2398 155:389 JLINK_ReadReg(FPSCR)  returns 0x00000000 (0005ms, 10669ms total)
T2398 155:394 JLINK_ReadReg(FPS0)  returns 0x00000000 (0000ms, 10669ms total)
T2398 155:394 JLINK_ReadReg(FPS1)  returns 0x00000000 (0000ms, 10669ms total)
T2398 155:394 JLINK_ReadReg(FPS2)  returns 0x00000000 (0000ms, 10669ms total)
T2398 155:394 JLINK_ReadReg(FPS3)  returns 0x00000000 (0000ms, 10669ms total)
T2398 155:394 JLINK_ReadReg(FPS4)  returns 0x00000000 (0000ms, 10669ms total)
T2398 155:394 JLINK_ReadReg(FPS5)  returns 0x00000000 (0000ms, 10669ms total)
T2398 155:394 JLINK_ReadReg(FPS6)  returns 0x00000000 (0000ms, 10669ms total)
